time v(out) v(in)
0 1.16018e-08 0
1e-09 1.16018e-08 0
2e-09 1.16019e-08 0
4e-09 1.16017e-08 0
8e-09 1.16019e-08 0
1.6e-08 1.16017e-08 0
3.2e-08 1.16019e-08 0
6.4e-08 1.16017e-08 0
1.28e-07 1.16019e-08 0
2.28e-07 1.16017e-08 0
3.28e-07 1.16019e-08 0
4.28e-07 1.16017e-08 0
5.28e-07 1.16019e-08 0
6.28e-07 1.16017e-08 0
7.28e-07 1.16019e-08 0
8.28e-07 1.16017e-08 0
9.28e-07 1.16019e-08 0
1.028e-06 1.16017e-08 0
1.128e-06 1.16019e-08 0
1.228e-06 1.16017e-08 0
1.328e-06 1.16019e-08 0
1.428e-06 1.16017e-08 0
1.528e-06 1.16019e-08 0
1.628e-06 1.16017e-08 0
1.728e-06 1.16019e-08 0
1.828e-06 1.16017e-08 0
1.928e-06 1.16019e-08 0
2.028e-06 1.16017e-08 0
2.128e-06 1.16019e-08 0
2.228e-06 1.16017e-08 0
2.328e-06 1.16019e-08 0
2.428e-06 1.16017e-08 0
2.528e-06 1.16019e-08 0
2.628e-06 1.16017e-08 0
2.728e-06 1.16019e-08 0
2.828e-06 1.16017e-08 0
2.928e-06 1.16019e-08 0
3.028e-06 1.16017e-08 0
3.128e-06 1.16019e-08 0
3.228e-06 1.16017e-08 0
3.328e-06 1.16019e-08 0
3.428e-06 1.16017e-08 0
3.528e-06 1.16019e-08 0
3.628e-06 1.16017e-08 0
3.728e-06 1.16019e-08 0
3.828e-06 1.16017e-08 0
3.928e-06 1.16019e-08 0
4.028e-06 1.16017e-08 0
4.128e-06 1.16019e-08 0
4.228e-06 1.16017e-08 0
4.328e-06 1.16019e-08 0
4.428e-06 1.16017e-08 0
4.528e-06 1.16019e-08 0
4.628e-06 1.16017e-08 0
4.728e-06 1.16019e-08 0
4.828e-06 1.16017e-08 0
4.928e-06 1.16019e-08 0
5.028e-06 1.16017e-08 0
5.128e-06 1.16019e-08 0
5.228e-06 1.16017e-08 0
5.328e-06 1.16019e-08 0
5.428e-06 1.16017e-08 0
5.528e-06 1.16019e-08 0
5.628e-06 1.16017e-08 0
5.728e-06 1.16019e-08 0
5.828e-06 1.16017e-08 0
5.928e-06 1.16019e-08 0
6.028e-06 1.16017e-08 0
6.128e-06 1.16019e-08 0
6.228e-06 1.16017e-08 0
6.328e-06 1.16019e-08 0
6.428e-06 1.16017e-08 0
6.528e-06 1.16019e-08 0
6.628e-06 1.16017e-08 0
6.728e-06 1.16019e-08 0
6.828e-06 1.16017e-08 0
6.928e-06 1.16019e-08 0
7.028e-06 1.16017e-08 0
7.128e-06 1.16019e-08 0
7.228e-06 1.16017e-08 0
7.328e-06 1.16019e-08 0
7.428e-06 1.16017e-08 0
7.528e-06 1.16019e-08 0
7.628e-06 1.16017e-08 0
7.728e-06 1.16019e-08 0
7.828e-06 1.16017e-08 0
7.928e-06 1.16019e-08 0
8.028e-06 1.16017e-08 0
8.128e-06 1.16019e-08 0
8.228e-06 1.16017e-08 0
8.328e-06 1.16019e-08 0
8.428e-06 1.16017e-08 0
8.528e-06 1.16019e-08 0
8.628e-06 1.16017e-08 0
8.728e-06 1.16019e-08 0
8.828e-06 1.16017e-08 0
8.928e-06 1.16019e-08 0
9.028e-06 1.16017e-08 0
9.128e-06 1.16019e-08 0
9.228e-06 1.16017e-08 0
9.328e-06 1.16019e-08 0
9.428e-06 1.16017e-08 0
9.528e-06 1.16019e-08 0
9.628e-06 1.16017e-08 0
9.728e-06 1.16019e-08 0
9.828e-06 1.16017e-08 0
9.928e-06 1.16019e-08 0
1e-05 1.16017e-08 0
1.001e-05 1.20575e-08 0.00125
1.003e-05 1.11531e-08 0.00375
1.007e-05 1.2047e-08 0.00875
1.015e-05 1.11582e-08 0.01875
1.025e-05 1.20439e-08 0.03125
1.035e-05 1.11609e-08 0.04375
1.045e-05 1.20411e-08 0.05625
1.055e-05 1.11636e-08 0.06875
1.065e-05 1.20383e-08 0.08125
1.075e-05 1.11663e-08 0.09375
1.085e-05 1.20355e-08 0.10625
1.095e-05 1.11688e-08 0.11875
1.105e-05 1.20327e-08 0.13125
1.115e-05 1.11714e-08 0.14375
1.125e-05 1.20297e-08 0.15625
1.135e-05 1.11737e-08 0.16875
1.145e-05 1.20267e-08 0.18125
1.155e-05 1.1176e-08 0.19375
1.165e-05 1.20234e-08 0.20625
1.175e-05 1.11781e-08 0.21875
1.185e-05 1.20203e-08 0.23125
1.195e-05 1.11808e-08 0.24375
1.205e-05 1.20186e-08 0.25625
1.215e-05 1.11858e-08 0.26875
1.225e-05 1.20189e-08 0.28125
1.235e-05 1.11901e-08 0.29375
1.245e-05 1.20157e-08 0.30625
1.255e-05 1.11912e-08 0.31875
1.265e-05 1.20118e-08 0.33125
1.275e-05 1.11934e-08 0.34375
1.285e-05 1.20091e-08 0.35625
1.295e-05 1.1196e-08 0.36875
1.305e-05 1.20064e-08 0.38125
1.315e-05 1.11986e-08 0.39375
1.325e-05 1.20037e-08 0.40625
1.335e-05 1.12013e-08 0.41875
1.345e-05 1.20011e-08 0.43125
1.355e-05 1.12039e-08 0.44375
1.365e-05 1.19985e-08 0.45625
1.375e-05 1.12065e-08 0.46875
1.385e-05 1.19959e-08 0.48125
1.395e-05 1.12091e-08 0.49375
1.405e-05 1.19932e-08 0.50625
1.415e-05 1.12118e-08 0.51875
1.425e-05 1.19906e-08 0.53125
1.435e-05 1.12144e-08 0.54375
1.445e-05 1.1988e-08 0.55625
1.455e-05 1.1217e-08 0.56875
1.465e-05 1.19854e-08 0.58125
1.475e-05 1.12196e-08 0.59375
1.485e-05 1.19828e-08 0.60625
1.495e-05 1.12222e-08 0.61875
1.505e-05 1.19802e-08 0.63125
1.515e-05 1.12248e-08 0.64375
1.525e-05 1.19776e-08 0.65625
1.535e-05 1.12273e-08 0.66875
1.545e-05 1.1975e-08 0.68125
1.555e-05 1.12299e-08 0.69375
1.565e-05 1.19724e-08 0.70625
1.575e-05 1.12325e-08 0.71875
1.585e-05 1.19698e-08 0.73125
1.595e-05 1.1235e-08 0.74375
1.605e-05 1.19672e-08 0.75625
1.615e-05 1.12375e-08 0.76875
1.625e-05 1.19646e-08 0.78125
1.635e-05 1.12401e-08 0.79375
1.645e-05 1.19621e-08 0.80625
1.655e-05 1.12427e-08 0.81875
1.665e-05 1.19595e-08 0.83125
1.675e-05 1.12452e-08 0.84375
1.685e-05 1.1957e-08 0.85625
1.695e-05 1.12478e-08 0.86875
1.705e-05 1.19545e-08 0.88125
1.715e-05 1.12503e-08 0.89375
1.725e-05 1.1952e-08 0.90625
1.735e-05 1.12529e-08 0.91875
1.745e-05 1.19495e-08 0.93125
1.755e-05 1.12555e-08 0.94375
1.765e-05 1.19469e-08 0.95625
1.775e-05 1.1258e-08 0.96875
1.785e-05 1.19444e-08 0.98125
1.795e-05 1.12606e-08 0.99375
1.805e-05 1.19419e-08 1.00625
1.815e-05 1.12631e-08 1.01875
1.825e-05 1.19394e-08 1.03125
1.835e-05 1.12656e-08 1.04375
1.845e-05 1.19369e-08 1.05625
1.855e-05 1.12682e-08 1.06875
1.865e-05 1.19344e-08 1.08125
1.875e-05 1.12707e-08 1.09375
1.885e-05 1.19319e-08 1.10625
1.895e-05 1.12732e-08 1.11875
1.905e-05 1.19294e-08 1.13125
1.915e-05 1.12757e-08 1.14375
1.925e-05 1.19269e-08 1.15625
1.935e-05 1.12782e-08 1.16875
1.945e-05 1.19244e-08 1.18125
1.955e-05 1.12807e-08 1.19375
1.965e-05 1.19219e-08 1.20625
1.975e-05 1.12832e-08 1.21875
1.985e-05 1.19195e-08 1.23125
1.995e-05 1.12856e-08 1.24375
2.005e-05 1.1917e-08 1.25625
2.015e-05 1.12881e-08 1.26875
2.025e-05 1.19145e-08 1.28125
2.035e-05 1.12906e-08 1.29375
2.045e-05 1.1912e-08 1.30625
2.055e-05 1.12931e-08 1.31875
2.065e-05 1.19096e-08 1.33125
2.075e-05 1.12956e-08 1.34375
2.085e-05 1.19071e-08 1.35625
2.095e-05 1.1298e-08 1.36875
2.105e-05 1.19046e-08 1.38125
2.115e-05 1.13005e-08 1.39375
2.125e-05 1.19022e-08 1.40625
2.135e-05 1.1303e-08 1.41875
2.145e-05 1.18997e-08 1.43125
2.155e-05 1.13054e-08 1.44375
2.165e-05 1.18972e-08 1.45625
2.175e-05 1.13079e-08 1.46875
2.185e-05 1.18948e-08 1.48125
2.195e-05 1.13103e-08 1.49375
2.205e-05 1.18923e-08 1.50625
2.215e-05 1.13128e-08 1.51875
2.225e-05 1.18899e-08 1.53125
2.235e-05 1.13152e-08 1.54375
2.245e-05 1.18875e-08 1.55625
2.255e-05 1.13177e-08 1.56875
2.265e-05 1.1885e-08 1.58125
2.275e-05 1.13201e-08 1.59375
2.285e-05 1.18826e-08 1.60625
2.295e-05 1.13226e-08 1.61875
2.305e-05 1.18802e-08 1.63125
2.315e-05 1.1325e-08 1.64375
2.325e-05 1.18777e-08 1.65625
2.335e-05 1.13274e-08 1.66875
2.345e-05 1.18753e-08 1.68125
2.355e-05 1.13298e-08 1.69375
2.365e-05 1.18729e-08 1.70625
2.375e-05 1.13323e-08 1.71875
2.385e-05 1.18705e-08 1.73125
2.395e-05 1.13347e-08 1.74375
2.405e-05 1.18681e-08 1.75625
2.415e-05 1.13371e-08 1.76875
2.425e-05 1.18656e-08 1.78125
2.435e-05 1.13396e-08 1.79375
2.445e-05 1.18632e-08 1.80625
2.455e-05 1.1342e-08 1.81875
2.465e-05 1.18608e-08 1.83125
2.475e-05 1.13444e-08 1.84375
2.485e-05 1.18584e-08 1.85625
2.495e-05 1.13468e-08 1.86875
2.505e-05 1.1856e-08 1.88125
2.515e-05 1.13492e-08 1.89375
2.525e-05 1.18536e-08 1.90625
2.535e-05 1.13517e-08 1.91875
2.545e-05 1.18512e-08 1.93125
2.555e-05 1.13541e-08 1.94375
2.565e-05 1.18487e-08 1.95625
2.575e-05 1.13565e-08 1.96875
2.585e-05 1.18463e-08 1.98125
2.595e-05 1.13589e-08 1.99375
2.605e-05 1.18439e-08 2.00625
2.615e-05 1.13613e-08 2.01875
2.625e-05 1.18415e-08 2.03125
2.635e-05 1.13637e-08 2.04375
2.645e-05 1.18391e-08 2.05625
2.655e-05 1.13661e-08 2.06875
2.665e-05 1.18367e-08 2.08125
2.675e-05 1.13685e-08 2.09375
2.685e-05 1.18343e-08 2.10625
2.695e-05 1.1371e-08 2.11875
2.705e-05 1.18319e-08 2.13125
2.715e-05 1.13734e-08 2.14375
2.725e-05 1.18296e-08 2.15625
2.735e-05 1.13758e-08 2.16875
2.745e-05 1.18272e-08 2.18125
2.755e-05 1.13782e-08 2.19375
2.765e-05 1.18248e-08 2.20625
2.775e-05 1.13806e-08 2.21875
2.785e-05 1.18224e-08 2.23125
2.795e-05 1.1383e-08 2.24375
2.805e-05 1.182e-08 2.25625
2.815e-05 1.13854e-08 2.26875
2.825e-05 1.18176e-08 2.28125
2.835e-05 1.13878e-08 2.29375
2.845e-05 1.18152e-08 2.30625
2.855e-05 1.13902e-08 2.31875
2.865e-05 1.18128e-08 2.33125
2.875e-05 1.13926e-08 2.34375
2.885e-05 1.18104e-08 2.35625
2.895e-05 1.13951e-08 2.36875
2.905e-05 1.1808e-08 2.38125
2.915e-05 1.13975e-08 2.39375
2.925e-05 1.18056e-08 2.40625
2.935e-05 1.13999e-08 2.41875
2.945e-05 1.18032e-08 2.43125
2.955e-05 1.14023e-08 2.44375
2.965e-05 1.18008e-08 2.45625
2.975e-05 1.14047e-08 2.46875
2.985e-05 1.17984e-08 2.48125
2.995e-05 1.14072e-08 2.49375
3.005e-05 1.1796e-08 2.50625
3.015e-05 1.14096e-08 2.51875
3.025e-05 1.17936e-08 2.53125
3.035e-05 1.1412e-08 2.54375
3.045e-05 1.17912e-08 2.55625
3.055e-05 1.14144e-08 2.56875
3.065e-05 1.17887e-08 2.58125
3.075e-05 1.14167e-08 2.59375
3.085e-05 1.1786e-08 2.60625
3.095e-05 1.14187e-08 2.61875
3.105e-05 1.17828e-08 2.63125
3.115e-05 1.14199e-08 2.64375
3.125e-05 1.17783e-08 2.65625
3.135e-05 1.14189e-08 2.66875
3.145e-05 1.17703e-08 2.68125
3.155e-05 1.14124e-08 2.69375
3.165e-05 1.17534e-08 2.70625
3.175e-05 1.13914e-08 2.71875
3.185e-05 1.17133e-08 2.73125
3.195e-05 1.13334e-08 2.74375
3.205e-05 1.1614e-08 2.75625
3.215e-05 1.11809e-08 2.76875
3.225e-05 1.13637e-08 2.78125
3.235e-05 1.07874e-08 2.79375
3.245e-05 1.07293e-08 2.80625
3.255e-05 9.78182e-09 2.81875
3.265e-05 9.11982e-09 2.83125
3.275e-05 7.22407e-09 2.84375
3.285e-05 5.04099e-09 2.85625
3.295e-05 7.393e-10 2.86875
3.305e-05 -5.28307e-09 2.88125
3.315e-05 -1.56832e-08 2.89375
3.325e-05 -3.14492e-08 2.90625
3.335e-05 -5.74602e-08 2.91875
3.345e-05 -9.85191e-08 2.93125
3.355e-05 -1.66246e-07 2.94375
3.365e-05 -2.78644e-07 2.95625
3.375e-05 -4.82276e-07 2.96875
3.385e-05 -8.84804e-07 2.98125
3.395e-05 -2.23704e-06 2.99375
3.405e-05 4.99906 3.00625
3.41211e-05 5.00095 3.01514
3.41861e-05 4.99905 3.02326
3.42688e-05 5.00094 3.0336
3.43688e-05 4.99906 3.0461
3.44688e-05 5.00094 3.0586
3.45688e-05 4.99906 3.0711
3.46688e-05 5.00094 3.0836
3.47688e-05 4.99906 3.0961
3.48688e-05 5.00094 3.1086
3.49688e-05 4.99906 3.1211
3.50688e-05 5.00093 3.1336
3.51688e-05 4.99907 3.1461
3.52688e-05 5.00093 3.1586
3.53688e-05 4.99907 3.1711
3.54688e-05 5.00093 3.1836
3.55688e-05 4.99907 3.1961
3.56688e-05 5.00092 3.2086
3.57688e-05 4.99908 3.2211
3.58688e-05 5.00092 3.2336
3.59688e-05 4.99908 3.2461
3.60688e-05 5.00092 3.2586
3.61688e-05 4.99908 3.2711
3.62688e-05 5.00092 3.2836
3.63688e-05 4.99908 3.2961
3.64688e-05 5.00091 3.3086
3.65688e-05 4.99909 3.3211
3.66688e-05 5.00091 3.3336
3.67688e-05 4.99909 3.3461
3.68688e-05 5.00091 3.3586
3.69688e-05 4.99909 3.3711
3.70688e-05 5.00091 3.3836
3.71688e-05 4.99909 3.3961
3.72688e-05 5.0009 3.4086
3.73688e-05 4.99909 3.4211
3.74688e-05 5.0009 3.4336
3.75688e-05 4.9991 3.4461
3.76688e-05 5.0009 3.4586
3.77688e-05 4.9991 3.4711
3.78688e-05 5.0009 3.4836
3.79688e-05 4.9991 3.4961
3.80688e-05 5.0009 3.5086
3.81688e-05 4.9991 3.5211
3.82688e-05 5.00089 3.5336
3.83688e-05 4.99911 3.5461
3.84688e-05 5.00089 3.5586
3.85688e-05 4.99911 3.5711
3.86688e-05 5.00089 3.5836
3.87688e-05 4.99911 3.5961
3.88688e-05 5.00089 3.6086
3.89688e-05 4.99911 3.6211
3.90688e-05 5.00088 3.6336
3.91688e-05 4.99912 3.6461
3.92688e-05 5.00088 3.6586
3.93688e-05 4.99912 3.6711
3.94688e-05 5.00088 3.6836
3.95688e-05 4.99912 3.6961
3.96688e-05 5.00088 3.7086
3.97688e-05 4.99912 3.7211
3.98688e-05 5.00088 3.7336
3.99688e-05 4.99912 3.7461
4.00688e-05 5.00087 3.7586
4.01688e-05 4.99913 3.7711
4.02688e-05 5.00087 3.7836
4.03688e-05 4.99913 3.7961
4.04688e-05 5.00087 3.8086
4.05688e-05 4.99913 3.8211
4.06688e-05 5.00087 3.8336
4.07688e-05 4.99913 3.8461
4.08688e-05 5.00086 3.8586
4.09688e-05 4.99914 3.8711
4.10688e-05 5.00086 3.8836
4.11688e-05 4.99914 3.8961
4.12688e-05 5.00086 3.9086
4.13688e-05 4.99914 3.9211
4.14688e-05 5.00086 3.9336
4.15688e-05 4.99914 3.9461
4.16688e-05 5.00086 3.9586
4.17688e-05 4.99914 3.9711
4.18688e-05 5.00085 3.9836
4.19688e-05 4.99915 3.9961
4.20688e-05 5.00085 4.0086
4.21688e-05 4.99915 4.0211
4.22688e-05 5.00085 4.0336
4.23688e-05 4.99915 4.0461
4.24688e-05 5.00085 4.0586
4.25688e-05 4.99915 4.0711
4.26688e-05 5.00085 4.0836
4.27688e-05 4.99915 4.0961
4.28688e-05 5.00084 4.1086
4.29688e-05 4.99916 4.1211
4.30688e-05 5.00084 4.1336
4.31688e-05 4.99916 4.1461
4.32688e-05 5.00084 4.1586
4.33688e-05 4.99916 4.1711
4.34688e-05 5.00084 4.1836
4.35688e-05 4.99916 4.1961
4.36688e-05 5.00084 4.2086
4.37688e-05 4.99916 4.2211
4.38688e-05 5.00083 4.2336
4.39688e-05 4.99917 4.2461
4.40688e-05 5.00083 4.2586
4.41688e-05 4.99917 4.2711
4.42688e-05 5.00083 4.2836
4.43688e-05 4.99917 4.2961
4.44688e-05 5.00083 4.3086
4.45688e-05 4.99917 4.3211
4.46688e-05 5.00083 4.3336
4.47688e-05 4.99917 4.3461
4.48688e-05 5.00082 4.3586
4.49688e-05 4.99918 4.3711
4.50688e-05 5.00082 4.3836
4.51688e-05 4.99918 4.3961
4.52688e-05 5.00082 4.4086
4.53688e-05 4.99918 4.4211
4.54688e-05 5.00082 4.4336
4.55688e-05 4.99918 4.4461
4.56688e-05 5.00082 4.4586
4.57688e-05 4.99918 4.4711
4.58688e-05 5.00082 4.4836
4.59688e-05 4.99918 4.4961
4.60688e-05 5.00081 4.5086
4.61688e-05 4.99919 4.5211
4.62688e-05 5.00081 4.5336
4.63688e-05 4.99919 4.5461
4.64688e-05 5.00081 4.5586
4.65688e-05 4.99919 4.5711
4.66688e-05 5.00081 4.5836
4.67688e-05 4.99919 4.5961
4.68688e-05 5.00081 4.6086
4.69688e-05 4.99919 4.6211
4.70688e-05 5.0008 4.6336
4.71688e-05 4.9992 4.6461
4.72688e-05 5.0008 4.6586
4.73688e-05 4.9992 4.6711
4.74688e-05 5.0008 4.6836
4.75688e-05 4.9992 4.6961
4.76688e-05 5.0008 4.7086
4.77688e-05 4.9992 4.7211
4.78688e-05 5.0008 4.7336
4.79688e-05 4.9992 4.7461
4.80688e-05 5.0008 4.7586
4.81688e-05 4.9992 4.7711
4.82688e-05 5.00079 4.7836
4.83688e-05 4.99921 4.7961
4.84688e-05 5.00079 4.8086
4.85688e-05 4.99921 4.8211
4.86688e-05 5.00079 4.8336
4.87688e-05 4.99921 4.8461
4.88688e-05 5.00079 4.8586
4.89688e-05 4.99921 4.8711
4.90688e-05 5.00079 4.8836
4.91688e-05 4.99921 4.8961
4.92688e-05 5.00079 4.9086
4.93688e-05 4.99921 4.9211
4.94688e-05 5.00078 4.9336
4.95688e-05 4.99922 4.9461
4.96688e-05 5.00078 4.9586
4.97688e-05 4.99922 4.9711
4.98688e-05 5.00078 4.9836
4.99688e-05 4.99922 4.9961
5e-05 5.00078 5
5e-05 5.00049 5
5e-05 5.00019 5
5.00001e-05 5.00009 5
5.00001e-05 5.00003 5
5.00001e-05 5.00002 5
5.00001e-05 5.00002 5
5.00002e-05 5.00001 4.99999
5.00002e-05 5 4.99998
5.00003e-05 5 4.99997
5.00006e-05 5 4.99994
5.00011e-05 5 4.99987
5.00021e-05 5 4.99974
5.00042e-05 5 4.99949
5.00083e-05 5 4.99898
5.00165e-05 5 4.99795
5.00329e-05 5 4.9959
5.00656e-05 5 4.99181
5.01312e-05 5 4.98362
5.02312e-05 5 4.97112
5.03312e-05 5 4.95862
5.04312e-05 5 4.94612
5.05312e-05 5 4.93362
5.06312e-05 5 4.92112
5.07312e-05 5 4.90862
5.08312e-05 5 4.89612
5.09312e-05 5 4.88362
5.10312e-05 5 4.87112
5.11312e-05 5 4.85862
5.12312e-05 5 4.84612
5.13312e-05 5 4.83362
5.14312e-05 5 4.82112
5.15312e-05 5 4.80862
5.16312e-05 5 4.79612
5.17312e-05 5 4.78362
5.18312e-05 5 4.77112
5.19312e-05 5 4.75862
5.20312e-05 5 4.74612
5.21312e-05 5 4.73362
5.22312e-05 5 4.72112
5.23312e-05 5 4.70862
5.24312e-05 5 4.69612
5.25312e-05 5 4.68362
5.26312e-05 5 4.67112
5.27312e-05 5 4.65862
5.28312e-05 5 4.64612
5.29312e-05 5 4.63362
5.30312e-05 5 4.62112
5.31312e-05 5 4.60862
5.32312e-05 5 4.59612
5.33312e-05 5 4.58362
5.34312e-05 5 4.57112
5.35312e-05 5 4.55862
5.36312e-05 5 4.54612
5.37312e-05 5 4.53362
5.38312e-05 5 4.52112
5.39312e-05 5 4.50862
5.40312e-05 5 4.49612
5.41312e-05 5 4.48362
5.42312e-05 5 4.47112
5.43312e-05 5 4.45862
5.44312e-05 5 4.44612
5.45312e-05 5 4.43362
5.46312e-05 5 4.42112
5.47312e-05 5 4.40862
5.48312e-05 5 4.39612
5.49312e-05 5 4.38362
5.50312e-05 5 4.37112
5.51312e-05 5 4.35862
5.52312e-05 5 4.34612
5.53312e-05 5 4.33362
5.54312e-05 5 4.32112
5.55312e-05 5 4.30862
5.56312e-05 5 4.29612
5.57312e-05 5 4.28362
5.58312e-05 5 4.27112
5.59312e-05 5 4.25862
5.60312e-05 5 4.24612
5.61312e-05 5 4.23362
5.62312e-05 5 4.22112
5.63312e-05 5 4.20862
5.64312e-05 5 4.19612
5.65312e-05 5 4.18362
5.66312e-05 5 4.17112
5.67312e-05 5 4.15862
5.68312e-05 5 4.14612
5.69312e-05 5 4.13362
5.70312e-05 5 4.12112
5.71312e-05 5 4.10862
5.72312e-05 5 4.09612
5.73312e-05 5 4.08362
5.74312e-05 5 4.07112
5.75312e-05 5 4.05862
5.76312e-05 5 4.04612
5.77312e-05 5 4.03362
5.78312e-05 5 4.02112
5.79312e-05 5 4.00862
5.80312e-05 5 3.99612
5.81312e-05 5 3.98362
5.82312e-05 5 3.97112
5.83312e-05 5 3.95862
5.84312e-05 5 3.94612
5.85312e-05 5 3.93362
5.86312e-05 5 3.92112
5.87312e-05 5 3.90862
5.88312e-05 5 3.89612
5.89312e-05 5 3.88362
5.90312e-05 5 3.87112
5.91312e-05 5 3.85862
5.92312e-05 5 3.84612
5.93312e-05 5 3.83362
5.94312e-05 5 3.82112
5.95312e-05 5 3.80862
5.96312e-05 5 3.79612
5.97312e-05 5 3.78362
5.98312e-05 5 3.77112
5.99312e-05 5 3.75862
6.00312e-05 5 3.74612
6.01312e-05 5 3.73362
6.02312e-05 5 3.72112
6.03312e-05 5 3.70862
6.04312e-05 5 3.69612
6.05312e-05 5 3.68362
6.06312e-05 5 3.67112
6.07312e-05 5 3.65862
6.08312e-05 5 3.64612
6.09312e-05 5 3.63362
6.10312e-05 5 3.62112
6.11312e-05 5 3.60862
6.12312e-05 5 3.59612
6.13312e-05 5 3.58362
6.14312e-05 5 3.57112
6.15312e-05 5 3.55862
6.16312e-05 5 3.54612
6.17312e-05 5 3.53362
6.18312e-05 5 3.52112
6.19312e-05 5 3.50862
6.20312e-05 5 3.49612
6.21312e-05 5 3.48362
6.22312e-05 5 3.47112
6.23312e-05 5 3.45862
6.24312e-05 5 3.44612
6.25312e-05 5 3.43362
6.26312e-05 5 3.42112
6.27312e-05 5 3.40862
6.28312e-05 5 3.39612
6.29312e-05 5 3.38362
6.30312e-05 5 3.37112
6.31312e-05 5 3.35862
6.32312e-05 5 3.34612
6.33312e-05 5 3.33362
6.34312e-05 5 3.32112
6.35312e-05 5 3.30862
6.36312e-05 5 3.29612
6.37312e-05 5 3.28362
6.38312e-05 5 3.27112
6.39312e-05 5 3.25862
6.40312e-05 5 3.24612
6.41312e-05 5 3.23362
6.42312e-05 5 3.22112
6.43312e-05 5 3.20862
6.44312e-05 5 3.19612
6.45312e-05 5 3.18362
6.46312e-05 5 3.17112
6.47312e-05 5 3.15862
6.48312e-05 5 3.14612
6.49312e-05 5 3.13362
6.50312e-05 5 3.12112
6.51312e-05 5 3.10862
6.52312e-05 5 3.09612
6.53312e-05 5 3.08362
6.54312e-05 5 3.07112
6.55312e-05 5 3.05862
6.56312e-05 5 3.04612
6.57312e-05 5 3.03362
6.58312e-05 5 3.02112
6.59312e-05 5 3.00862
6.60312e-05 5 2.99612
6.61312e-05 5 2.98362
6.62312e-05 5 2.97112
6.63312e-05 5 2.95862
6.64312e-05 5 2.94612
6.65312e-05 5 2.93362
6.66312e-05 5 2.92112
6.67312e-05 5 2.90862
6.68312e-05 5 2.89612
6.69312e-05 5 2.88362
6.70312e-05 5 2.87112
6.71312e-05 5 2.85862
6.72312e-05 5 2.84612
6.73312e-05 5 2.83362
6.74312e-05 5 2.82112
6.75312e-05 5 2.80862
6.76312e-05 5 2.79612
6.77312e-05 5 2.78362
6.78312e-05 5 2.77112
6.79312e-05 5 2.75862
6.80312e-05 5 2.74612
6.81312e-05 5 2.73362
6.82312e-05 5 2.72112
6.83312e-05 5 2.70862
6.84312e-05 5 2.69612
6.85312e-05 5 2.68362
6.86312e-05 5 2.67112
6.87312e-05 5 2.65862
6.88312e-05 5 2.64612
6.89312e-05 5 2.63362
6.90312e-05 5 2.62112
6.91312e-05 5 2.60862
6.92312e-05 5 2.59612
6.93312e-05 5 2.58362
6.94312e-05 5 2.57112
6.95312e-05 5 2.55862
6.96312e-05 5 2.54612
6.97312e-05 5 2.53362
6.98312e-05 5 2.52112
6.99312e-05 5 2.50862
7.00312e-05 5 2.49612
7.01312e-05 5 2.48362
7.02312e-05 5 2.47112
7.03312e-05 5 2.45862
7.04312e-05 5 2.44612
7.05312e-05 5 2.43362
7.06312e-05 5 2.42112
7.07312e-05 5 2.40862
7.08312e-05 5 2.39612
7.09312e-05 5 2.38362
7.10312e-05 5 2.37112
7.11312e-05 5 2.35862
7.12312e-05 5 2.34612
7.13312e-05 5 2.33362
7.14312e-05 5 2.32112
7.15312e-05 5 2.30862
7.16312e-05 5 2.29612
7.17312e-05 5 2.28362
7.18312e-05 5 2.27112
7.19312e-05 5 2.25862
7.20312e-05 5 2.24612
7.21312e-05 5 2.23362
7.22312e-05 5 2.22112
7.23312e-05 5 2.20862
7.24312e-05 5 2.19612
7.25312e-05 5 2.18362
7.26312e-05 5 2.17112
7.27312e-05 5 2.15862
7.28312e-05 5 2.14612
7.29312e-05 5 2.13362
7.30312e-05 5 2.12112
7.31312e-05 5 2.10862
7.32312e-05 5 2.09612
7.33312e-05 5 2.08362
7.34312e-05 5 2.07112
7.35312e-05 5 2.05862
7.36312e-05 5 2.04612
7.37312e-05 5 2.03362
7.38312e-05 5 2.02112
7.39312e-05 5 2.00862
7.40312e-05 5 1.99612
7.41312e-05 5 1.98362
7.42312e-05 5 1.97112
7.43312e-05 5 1.95862
7.44312e-05 5 1.94612
7.45312e-05 5 1.93362
7.46312e-05 5 1.92112
7.47312e-05 5 1.90862
7.48312e-05 5 1.89612
7.49312e-05 5 1.88362
